! S2P File: Measurements: S-parameters
# Hz S RI R 50
100000000.0 -1.0357963579690146 0.01223822574042611 -0.032322351809329644 0.017478514562944657 -0.03232235180932964 0.017478514562944653 -1.0640793441766243 0.03452022792575026
110000000.0 -1.0178760981590846 0.005687618978881306 -0.01621387042727174 0.008123187844536158 -0.01621387042727174 0.008123187844536157 -1.0322822693425246 0.016145390351923333
120000000.0 -1.011985274823969 0.003630342812437568 -0.010942005666779548 0.005200712206034979 -0.010942005666779548 0.00520071220603498 -1.0218175282822608 0.010358942320906745
130000000.0 -1.0090449841609501 0.0026303578009302044 -0.008307755603020663 0.003780169002546841 -0.008307755603020665 0.003780169002546841 -1.0165768783335536 0.007537854941835215
140000000.0 -1.0072771498441915 0.0020397797848566088 -0.006719797124049026 0.002939769041496148 -0.006719797124049026 0.0029397690414961486 -1.0134140738057973 0.005866009814465286
150000000.0 -1.0060965461207454 0.0016499169297136769 -0.005657326338216989 0.002384108384502997 -0.00565732633821699 0.0023841083845029974 -1.0112965885356753 0.004759139534290483
160000000.0 -1.005251693152958 0.0013743980632503 -0.0048953813369265265 0.0019908489326012774 -0.004895381336926526 0.0019908489326012774 -1.0097773594607309 0.003975235270168079
170000000.0 -1.0046163939478114 0.0011705580020668247 -0.004320789691885209 0.0016994027572778537 -0.004320789691885209 0.0016994027572778537 -1.0086312353312652 0.0033940026302021454
180000000.0 -1.0041212024546642 0.0010137562485210364 -0.003871861927081005 0.001474893313590152 -0.003871861927081005 0.0014748933135901518 -1.0077354834502503 0.0029461230090000482
190000000.0 -1.0037238343888764 0.000890413250464484 -0.0035104428108764228 0.0012979933542193046 -0.0035104428108764223 0.0012979933542193046 -1.0070141571751485 0.002593161020363604
200000000.0 -1.0033972549704258 0.0007905368392445349 -0.0032123031208910412 0.00115444311353868 -0.003212303120891042 0.0011544431135386804 -1.0064189853740826 0.002306741800219288
210000000.0 -1.0031244149490062 0.000708363249403029 -0.002962587580039002 0.0010361434948487759 -0.0029625875800390012 0.001036143494848776 -1.005920387691923 0.0020705829441455058
220000000.0 -1.0028927035913673 0.0006396227479768332 -0.002749862345789783 0.000936994062011881 -0.0027498623457897836 0.000936994062011881 -1.0054956272004762 0.0018725942184751813
230000000.0 -1.0026935894659967 0.0005813352805515143 -0.0025666259411162807 0.0008527999946837412 -0.002566625941116281 0.0008527999946837412 -1.0051296937137744 0.0017044372638399085
240000000.0 -1.0025204922994684 0.0005314032788203831 -0.0024069064145904057 0.0007805702560253596 -0.0024069064145904057 0.0007805702560253598 -1.004810716824971 0.0015601671446871814
250000000.0 -1.0023686078704013 0.00048821749119316236 -0.002266406579921656 0.000718015781649874 -0.002266406579921656 0.0007180157816498739 -1.0045300853304524 0.001435221917401946
260000000.0 -1.0022342740670096 0.00045061380330994226 -0.002141858187364569 0.0006634864582668539 -0.0021418581873645696 0.000663486458266854 -1.0042812978206435 0.0013263024382812727
270000000.0 -1.00211455447057 0.0004175704180563857 -0.0020306064760788234 0.0006155071206420949 -0.0020306064760788234 0.0006155071206420948 -1.0040590517849135 0.0012304557083084695
280000000.0 -1.0020071528278758 0.0003883396896116133 -0.0019305740174758287 0.0005730097859159342 -0.0019305740174758287 0.0005730097859159341 -1.003859204891948 0.0011455428493587386
290000000.0 -1.0019102280438017 0.0003623203571407578 -0.0018400908888696718 0.0005351320861624066 -0.001840090888869672 0.0005351320861624066 -1.003678416457243 0.0010698486183442308
300000000.0 -1.0018223207989803 0.0003390363844234777 -0.0017578565761308437 0.0005012017808262478 -0.0017578565761308433 0.0005012017808262477 -1.0035141085516155 0.0010020469681360834
310000000.0 -1.00174223313005 0.00031811667257356055 -0.0016827950923508422 0.0004706861568748577 -0.0016827950923508422 0.0004706861568748578 -1.003364123711528 0.0009410636772447116
320000000.0 -1.0016689648546264 0.0002992154749909178 -0.001614008387322791 0.0004430900220166174 -0.0016140083873227911 0.0004430900220166176 -1.003226674689605 0.0008859135232213044
330000000.0 -1.001601682746637 0.00028207238732697016 -0.0015507401079613795 0.00041803946137024766 -0.001550740107961379 0.0004180394613702476 -1.003100244702775 0.0008358475285597883
340000000.0 -1.001539667542118 0.000266478005867152 -0.0014923274466957636 0.0003952356175895023 -0.0014923274466957634 0.00039523561758950224 -1.0029835143415895 0.0007902772224782035
350000000.0 -1.001482318266848 0.00025223886823716186 -0.0014382243905841177 0.00037439652628642745 -0.0014382243905841172 0.0003743965262864274 -1.0028753904755998 0.0007486297109726607
360000000.0 -1.0014291107061832 0.0002391920765975707 -0.0013879452957840446 0.0003552851146770571 -0.0013879452957840444 0.00035528511467705713 -1.0027749082065907 0.0007104282093217338
370000000.0 -1.001379614657792 0.0002271997710306543 -0.0013411030012122798 0.00033770368977522025 -0.0013411030012122796 0.00033770368977522025 -1.0026812905984555 0.0006752824342113832
380000000.0 -1.0013334625763484 0.0002161374059840983 -0.0012973695362543077 0.00032147505015140174 -0.0012973695362543075 0.00032147505015140174 -1.0025938865708033 0.0006428404822372515
390000000.0 -1.0012903129327777 0.00020591890879077828 -0.0012564224992441596 0.00030647388287055084 -0.0012564224992441598 0.00030647388287055084 -1.0025120492373167 0.0006128520264634546
400000000.0 -1.0012498920925703 0.00019645747902465664 -0.0012180182990305646 0.00029257614685278125 -0.0012180182990305646 0.0002925761468527813 -1.0024352918588657 0.000585070731074278
410000000.0 -1.001211944303163 0.00018767570676787634 -0.0011819198957130933 0.00027966942419564136 -0.0011819198957130931 0.0002796694241956414 -1.0023631412745602 0.0005592699080789062
420000000.0 -1.0011762445441552 0.000179507316360336 -0.001147918682612079 0.0002676570458274581 -0.001147918682612079 0.0002676570458274581 -1.0022951812604748 0.0005352565138272409
430000000.0 -1.0011426007715225 0.00017189667569299393 -0.001115839241564705 0.00025645878225274 -0.001115839241564705 0.00025645878225273995 -1.002231059794863 0.0005128702859510633
440000000.0 -1.0011108367606796 0.00016478783492891377 -0.0010855186315378964 0.000245992301073331 -0.0010855186315378964 0.00024599230107333087 -1.002170453983459 0.0004919441243061792
450000000.0 -1.0010807965911284 0.00015813611897736934 -0.0010568113530215245 0.0002361937193610149 -0.0010568113530215245 0.00023619371936101492 -1.002113071167207 0.0004723533539689139
460000000.0 -1.001052348151738 0.00015189924267086587 -0.0010295991185411706 0.0002270017232922655 -0.0010295991185411706 0.0002270017232922655 -1.0020586767077169 0.00045397545484925284
470000000.0 -1.0010253636586293 0.00014604704837528146 -0.0010037609154182293 0.00021837271953162869 -0.0010037609154182293 0.00021837271953162869 -1.0020070291382936 0.0004367234562384967
480000000.0 -1.000999737163473 0.00014054647845632213 -0.0009792012793242708 0.0002102589150422363 -0.0009792012793242708 0.00021025891504223627 -1.0019579361706892 0.0004205018744063666
490000000.0 -1.0009753652491526 0.00013536954584550905 -0.0009558222297035268 0.0002026190480991829 -0.0009558222297035265 0.00020261904809918286 -1.0019112018632088 0.0004052274235469282
500000000.0 -1.000952157041807 0.0001304906814469893 -0.000933538920990798 0.00019541625886357368 -0.000933538920990798 0.0001954162588635737 -1.0018666561450482 0.0003908272306280976
510000000.0 -1.0009300308203037 0.00012588308837410103 -0.0009122764329150991 0.00018861109082207467 -0.0009122764329150991 0.00018861109082207467 -1.0018241513142743 0.00037722158648737875
520000000.0 -1.0009089119881818 0.00012152995220823313 -0.0008919646827163868 0.00018217890360524346 -0.0008919646827163865 0.00018217890360524346 -1.001783546633344 0.00036436053293558427
530000000.0 -1.0008887322993623 0.00011741088279077641 -0.0008725401353051566 0.00017608982285698702 -0.0008725401353051565 0.00017608982285698702 -1.0017447160547819 0.00035218437430624357
540000000.0 -1.000869432631051 0.00011350816480950481 -0.0008539488448482461 0.0001703189081163294 -0.0008539488448482461 0.00017031890811632943 -1.001707550550242 0.00034064551734477893
550000000.0 -1.0008509568917376 0.00010980613618681725 -0.0008361387738124934 0.0001648427690647697 -0.0008361387738124934 0.00016484276906476975 -1.0016719467296726 0.0003296954419605078
560000000.0 -1.0008332543860352 0.00010629176359653214 -0.000819062909646789 0.0001596428502538186 -0.000819062909646789 0.00015964285025381862 -1.0016378094380594 0.0003192987007413879
570000000.0 -1.0008162738196142 0.00010295325365389674 -0.0008026710070336351 0.00015470154252998218 -0.0008026710070336352 0.00015470154252998218 -1.0016050389959976 0.00030941886997987845
580000000.0 -1.0007999736581688 9.977887371028235e-05 -0.0007869256982731546 0.00015000174631498234 -0.0007869256982731549 0.00015000174631498236 -1.001573560938938 0.00030002157642875394
590000000.0 -1.000784311845465 9.675589720833746e-05 -0.0007717863880769088 0.0001455245818995738 -0.000771786388076909 0.00014552458189957387 -1.00154329422435 0.00029106889414293505
600000000.0 -1.0007692532487964 9.38740217712029e-05 -0.0007572212096966649 0.0001412551719404097 -0.0007572212096966649 0.00014125517194040968 -1.0015141750555607 0.0002825314694873773
610000000.0 -1.0007547622302357 9.112456440040569e-05 -0.0007431961898027451 0.0001371807231858491 -0.0007431961898027451 0.00013718072318584913 -1.001486136117649 0.00027438368599070695
620000000.0 -1.0007408081416946 8.849905780989436e-05 -0.0007296830193073119 0.0001332888441725712 -0.0007296830193073118 0.00013328884417257122 -1.001459120624164 0.0002666012839231914
630000000.0 -1.0007273618239763 8.599077965391849e-05 -0.0007166542083260719 0.00012956989806851458 -0.0007166542083260718 0.00012956989806851458 -1.001433073067493 0.0002591646417723365
640000000.0 -1.0007143966019258 8.35931751974181e-05 -0.0007040849263397119 0.00012601434519759718 -0.0007040849263397119 0.00012601434519759715 -1.0014079435624603 0.000252055202938832
650000000.0 -1.000701886051052 8.130024047615513e-05 -0.0006919495511894748 0.0001226132073951393 -0.0006919495511894747 0.0001226132073951393 -1.001383680915271 0.0002452542072158196
660000000.0 -1.0006898065192722 7.910437340662013e-05 -0.000680225872068536 0.00011935506352786641 -0.000680225872068536 0.00011935506352786642 -1.001360241282647 0.0002387386313521548
670000000.0 -1.0006781365130153 7.699993781487477e-05 -0.0006688940530722966 0.00011623185147407771 -0.0006688940530722968 0.00011623185147407771 -1.0013375849938349 0.00023249274100914884
680000000.0 -1.0006668552138012 7.498179799043658e-05 -0.0006579342551144457 0.0001132361137690086 -0.0006579342551144457 0.00011323611376900859 -1.0013156727763972 0.0002265019463026066
690000000.0 -1.0006559438662515 7.304629629774439e-05 -0.00064732893603349 0.00011036236691846882 -0.00064732893603349 0.0001103623669184688 -1.0012944693311052 0.0002207548592293739
700000000.0 -1.0006453840227094 7.118691847915053e-05 -0.0006370603387636125 0.00010760111841831894 -0.0006370603387636125 0.00010760111841831895 -1.0012739389311776 0.00021523306624722776
710000000.0 -1.0006351594572878 6.940088455593605e-05 -0.0006271133090337142 0.00010494840732833626 -0.0006271133090337142 0.00010494840732833623 -1.001254050988601 0.00020992850832736071
720000000.0 -1.0006252547549692 6.768494425799489e-05 -0.0006174734325934329 0.00010239936348440378 -0.0006174734325934328 0.0001023993634844038 -1.0012347768462113 0.00020483124259423533
730000000.0 -1.0006156533573884 6.603443344529728e-05 -0.0006081241959033921 9.994698173894773e-05 -0.0006081241959033922 9.994698173894774e-05 -1.001216083887438 0.00019992699547246838
740000000.0 -1.0006063426266143 6.44456479819749e-05 -0.0005990541179067012 9.758586329415853e-05 -0.0005990541179067011 9.758586329415853e-05 -1.001197948967222 0.00019520523093166314
750000000.0 -1.0005973096185519 6.291624416446646e-05 -0.0005902510614471419 9.53125570601642e-05 -0.0005902510614471419 9.531255706016423e-05 -1.0011803479096366 0.0001906587579324438
760000000.0 -1.0005885417426004 6.144266530157631e-05 -0.0005817029093930549 9.3121824951456e-05 -0.0005817029093930549 9.3121824951456e-05 -1.00116325664187 0.0001862772853247614
770000000.0 -1.0005800276916408 6.002195532160924e-05 -0.0005733990454168991 9.100938116371943e-05 -0.000573399045416899 9.100938116371943e-05 -1.0011466538121891 0.00018205260831725742
780000000.0 -1.0005717566683259 5.865163642629036e-05 -0.0005653292375960169 8.897154397830064e-05 -0.0005653292375960169 8.897154397830064e-05 -1.0011305189531152 0.00017797713725335235
790000000.0 -1.0005637185737273 5.7329447390451074e-05 -0.0005574839026387864 8.700508011964373e-05 -0.0005574839026387863 8.700508011964372e-05 -1.0011148327223276 0.00017404456548072221
800000000.0 -1.0005559036555092 5.605327786222088e-05 -0.0005498537224578171 8.510672534204568e-05 -0.0005498537224578171 8.510672534204568e-05 -1.0010995765477166 0.00017024792976743085
810000000.0 -1.0005483024774071 5.482108114392282e-05 -0.0005424294426125539 8.327366345286434e-05 -0.0005424294426125539 8.327366345286434e-05 -1.0010847317061073 0.00016658218420946837
820000000.0 -1.000540906112041 5.363042638462719e-05 -0.0005352025283158217 8.150205827848274e-05 -0.0005352025283158216 8.150205827848275e-05 -1.0010702814446486 0.00016303899020794044
830000000.0 -1.0005337068982698 5.247976963499217e-05 -0.0005281660707316578 7.978968916317624e-05 -0.0005281660707316577 7.978968916317622e-05 -1.0010562120027104 0.0001596141175214982
840000000.0 -1.000526696711731 5.136701608979416e-05 -0.0005213121457559808 7.813358626540534e-05 -0.0005213121457559808 7.813358626540534e-05 -1.0010425077656717 0.00015630178222124627
850000000.0 -1.0005198683953394 5.029032550106189e-05 -0.0005146339547352413 7.653097988239553e-05 -0.0005146339547352413 7.653097988239553e-05 -1.001029154944097 0.00015309661932073654
860000000.0 -1.0005132150683256 4.9248333626123e-05 -0.0005081248446181805 7.497990247263952e-05 -0.0005081248446181806 7.497990247263954e-05 -1.0010161398074142 0.00014999462247638776
870000000.0 -1.0005067298456083 4.823958564416299e-05 -0.0005017782659154443 7.347817728965236e-05 -0.0005017782659154443 7.347817728965236e-05 -1.0010034497658782 0.00014699123571371107
880000000.0 -1.000500406540884 4.726246882226883e-05 -0.0004955883087402114 7.202334266643208e-05 -0.0004955883087402115 7.202334266643209e-05 -1.0009910727815698 0.00014408162149941663
890000000.0 -1.0004942391290503 4.63158841459889e-05 -0.000489549206264039 7.061379617640097e-05 -0.0004895492062640391 7.061379617640097e-05 -1.0009789972872056 0.00014126236272035385
900000000.0 -1.0004882216470248 4.5398393026733786e-05 -0.00048365508495430557 6.924745348394465e-05 -0.0004836550849543055 6.924745348394463e-05 -1.0009672116914619 0.0001385294627727702
910000000.0 -1.0004823490118508 4.450877288081148e-05 -0.00047790128253015073 6.792249406753182e-05 -0.0004779012825301508 6.792249406753182e-05 -1.0009557066716706 0.0001358793877357886
920000000.0 -1.0004766160279077 4.364575109524894e-05 -0.00047228282722357206 6.663704649011013e-05 -0.00047228282722357206 6.663704649011015e-05 -1.000944472374866 0.00013330834439602177
930000000.0 -1.0004710176754938 4.280840085496748e-05 -0.0004667948997123962 6.538976725186537e-05 -0.00046679489971239614 6.538976725186537e-05 -1.0009334991176286 0.00013081374761833215
940000000.0 -1.000465549401041 4.199565457875086e-05 -0.0004614331540139416 6.417906910452477e-05 -0.0004614331540139416 6.417906910452477e-05 -1.0009227781013605 0.00012839236094469374
950000000.0 -1.0004602065330368 4.1206619437051245e-05 -0.0004561929080105108 6.300363138189552e-05 -0.00045619290801051087 6.300363138189552e-05 -1.0009122998144016 0.000126041459544159
960000000.0 -1.0004549850011402 4.044035083339089e-05 -0.000451070409821482 6.18619978247848e-05 -0.00045107040982148206 6.18619978247848e-05 -1.000902056848941 0.00012375808975281774
970000000.0 -1.0004498804143014 3.969582730891397e-05 -0.0004460613408304493 6.075267526255407e-05 -0.00044606134083044924 6.075267526255407e-05 -1.0008920407717263 0.00012153932141605194
980000000.0 -1.0004448890455526 3.8972238118959553e-05 -0.0004411621969932053 5.9674497779997457e-05 -0.00044116219699320527 5.9674497779997436e-05 -1.000882244480666 0.00011938278968414977
990000000.0 -1.0004400073241886 3.8268729644107354e-05 -0.0004363696352515815 5.862614142706683e-05 -0.0004363696352515815 5.862614142706682e-05 -1.0008726613392054 0.00011728582898452431
1000000000.0 -1.0004352315684444 3.758459000322007e-05 -0.0004316800825637386 5.760664222441957e-05 -0.00043168008256373866 5.760664222441957e-05 -1.0008632841946197 0.00011524668883101885
1010000000.0 -1.0004305583275284 3.6919076310166306e-05 -0.00042709013989219443 5.661488951616074e-05 -0.00042709013989219443 5.661488951616074e-05 -1.0008541062478185 0.00011326310691640383
1020000000.0 -1.0004259843757257 3.6271571319933717e-05 -0.000422596710966313 5.564993862985262e-05 -0.00042259671096631297 5.56499386298526e-05 -1.0008451211366745 0.00011133312654640365
1030000000.0 -1.000421506580872 3.5641450979647215e-05 -0.0004181968360040434 5.471087044151692e-05 -0.0004181968360040433 5.471087044151692e-05 -1.0008363230419466 0.00010945489275000581
1040000000.0 -1.0004171218322515 3.502809705091871e-05 -0.00041388740149708676 5.379676419698807e-05 -0.00041388740149708676 5.379676419698807e-05 -1.0008277057191004 0.00010762651866958722
1050000000.0 -1.0004128274041104 3.4430747673876696e-05 -0.000409665924691663 5.290644779601723e-05 -0.000409665924691663 5.2906447796017224e-05 -1.0008192642954732 0.0001058456704908896
1060000000.0 -1.000408620325442 3.384892978910409e-05 -0.000405529385427082 5.2039249350037655e-05 -0.0004055293854270819 5.2039249350037655e-05 -1.000810992757853 0.00010411100949336507
1070000000.0 -1.0004044981376083 3.3282006585911427e-05 -0.0004014755460640252 5.119422440476994e-05 -0.0004014755460640253 5.119422440476995e-05 -1.0008028865699485 0.00010242069936880996
1080000000.0 -1.0004004582879973 3.27294405595144e-05 -0.00039750189893987233 5.037059757429726e-05 -0.0003975018989398724 5.037059757429726e-05 -1.0007949406855676 0.00010077326456449162
1090000000.0 -1.0003964983297793 3.219084716300242e-05 -0.00039360613947169376 4.956783100779463e-05 -0.0003936061394716937 4.956783100779463e-05 -1.00078715055348 9.916758652322781e-05
1100000000.0 -1.0003926159617593 3.1665795327421864e-05 -0.00038978602593120254 4.878525021883996e-05 -0.0003897860259312026 4.878525021883995e-05 -1.0007795116306686 9.760227439073576e-05
1110000000.0 -1.0003888088144044 3.115376027692433e-05 -0.00038603916440170527 4.80220761710115e-05 -0.0003860391644017053 4.802207617101152e-05 -1.0007720191015377 9.607576715342427e-05
1120000000.0 -1.0003850746109937 3.065438905681822e-05 -0.0003823633376173224 4.7277768300664755e-05 -0.00038236333761732243 4.7277768300664755e-05 -1.0007646686072915 9.458687299367345e-05
1130000000.0 -1.0003814114096252 3.0167145588309143e-05 -0.0003787567952188418 4.655153895081221e-05 -0.00037875679521884184 4.6551538950812204e-05 -1.0007574567155344 9.313413425824201e-05
1140000000.0 -1.0003778171526865 2.969161125283784e-05 -0.00037521749355233513 4.5842803985863466e-05 -0.00037521749355233524 4.584280398586348e-05 -1.0007503793611536 9.171644354264822e-05
1150000000.0 -1.0003742900403478 2.92274668288145e-05 -0.0003717437983999341 4.5151021231071624e-05 -0.00037174379839993406 4.515102123107162e-05 -1.0007434331785048 9.033261164080121e-05
1160000000.0 -1.0003708281641395 2.8774300222461426e-05 -0.0003683337619840623 4.447563684723359e-05 -0.00036833376198406237 4.44756368472336e-05 -1.0007366142377694 8.898161230532329e-05
