! S2P File: Measurements: S-parameters
# Hz S RI R 50
1.0 0.3331871810813874 -0.006978256002371587 0.6663743621627746 -0.01395651200474304 0.6663743621627743 -0.013956512004740762 0.33274872432554886 -0.02791302400948189
2.0 0.33274949229269457 -0.013938178139632227 0.6654989845853894 -0.027876356279265498 0.6654989845853896 -0.027876356279265706 0.3309979691707789 -0.05575271255853136
3.0 0.33202256080239084 -0.020861592756857162 0.6640451216047816 -0.041723185513714116 0.6640451216047817 -0.04172318551371438 0.3280902432095634 -0.08344637102742916
4.0 0.3310101763602417 -0.027730643688447895 0.6620203527204832 -0.055461287376895804 0.6620203527204829 -0.055461287376895776 0.32404070544096586 -0.1109225747537916
5.0 0.3297175755172867 -0.03452794376681793 0.6594351510345735 -0.06905588753363616 0.6594351510345736 -0.06905588753363631 0.31887030206914707 -0.13811177506727276
6.0 0.32815137453283294 -0.04123671789990959 0.6563027490656658 -0.08247343579981939 0.6563027490656658 -0.08247343579981924 0.3126054981313316 -0.16494687159963836
7.0 0.3263194858901759 -0.047840935314469805 0.6526389717803518 -0.09568187062893933 0.6526389717803518 -0.09568187062893885 0.3052779435607036 -0.1913637412578777
8.0 0.32423102035771134 -0.05432542888649114 0.6484620407154225 -0.1086508577729823 0.6484620407154222 -0.10865085777298233 0.2969240814308446 -0.21730171554596445
9.0 0.32189617680934063 -0.06067599985697211 0.6437923536186813 -0.12135199971394425 0.6437923536186814 -0.12135199971394382 0.28758470723736257 -0.24270399942788765
10.0 0.31932612221682677 -0.06687950664371342 0.6386522444336534 -0.13375901328742676 0.6386522444336532 -0.13375901328742654 0.2773044888673067 -0.26751802657485313
11.0 0.31653286434343886 -0.07292393689101263 0.6330657286868777 -0.14584787378202524 0.6330657286868778 -0.14584787378202543 0.26613145737375565 -0.29169574756405087
12.0 0.31352911970329606 -0.07879846233170801 0.6270582394065922 -0.15759692466341596 0.6270582394065922 -0.15759692466341607 0.25411647881318433 -0.3151938493268321
13.0 0.3103281793082744 -0.0844934764541202 0.6206563586165488 -0.1689869529082404 0.6206563586165488 -0.1689869529082403 0.2413127172330976 -0.33797390581648057
14.0 0.3069437746114137 -0.0900006153558715 0.6138875492228275 -0.18000123071174307 0.6138875492228276 -0.18000123071174326 0.22777509844565505 -0.36000246142348646
15.0 0.3033899458820919 -0.0953127625156185 0.6067798917641837 -0.19062552503123698 0.6067798917641835 -0.19062552503123684 0.21355978352836702 -0.3812510500624737
16.0 0.29968091502528266 -0.10042403851354603 0.5993618300505653 -0.20084807702709212 0.5993618300505653 -0.20084807702709245 0.19872366010113063 -0.40169615405418474
17.0 0.29583096459738645 -0.1053297769761335 0.5916619291947729 -0.21065955395226704 0.591661929194773 -0.21065955395226726 0.18332385838954585 -0.4213191079045344
18.0 0.2918543244870752 -0.11002648820724079 0.5837086489741503 -0.2200529764144816 0.5837086489741502 -0.2200529764144817 0.16741729794830043 -0.4401059528289633
19.0 0.2877650674335963 -0.11451181209582663 0.5755301348671925 -0.22902362419165323 0.5755301348671924 -0.2290236241916532 0.15106026973438486 -0.45804724838330635
20.0 0.2835770142582868 -0.11878446196276835 0.5671540285165736 -0.2375689239255366 0.5671540285165735 -0.23756892392553644 0.13430805703314713 -0.47513784785107294
21.0 0.27930364939757474 -0.12284416102955363 0.5586072987951494 -0.24568832205910718 0.5586072987951494 -0.24568832205910726 0.11721459759029884 -0.49137664411821447
22.0 0.274958047055707 -0.12669157316575538 0.549916094111414 -0.25338314633151093 0.549916094111414 -0.253383146331511 0.09983218822282769 -0.506766292663022
23.0 0.270552808049266 -0.1303282295069351 0.541105616098532 -0.2606564590138702 0.5411056160985321 -0.2606564590138702 0.08221123219706426 -0.5213129180277404
24.0 0.266100007197799 -0.1337564524372475 0.532200014395598 -0.2675129048744949 0.532200014395598 -0.2675129048744949 0.06440002879119623 -0.5350258097489898
25.0 0.26161115092841336 -0.1369792783089791 0.5232223018568267 -0.2739585566179581 0.5232223018568266 -0.2739585566179579 0.0464446037136532 -0.5479171132359159
26.0 0.2570971446082365 -0.14000038013175908 0.514194289216473 -0.28000076026351817 0.5141942892164729 -0.28000076026351817 0.02838857843294583 -0.5600015205270362
27.0 0.25256826899703033 -0.142823991313973 0.5051365379940607 -0.28564798262794605 0.5051365379940607 -0.28564798262794605 0.010273075988121268 -0.571295965255892
28.0 0.24803416512171714 -0.14545483138399057 0.4960683302434343 -0.2909096627679812 0.4960683302434342 -0.2909096627679813 -0.007863339513131697 -0.5818193255359626
29.0 0.24350382681294575 -0.14789803446440003 0.48700765362589143 -0.2957960689288 0.4870076536258914 -0.29579606892879995 -0.025984692748217145 -0.5915921378575998
30.0 0.23898560010829928 -0.15015908112279616 0.47797120021659856 -0.30031816224559243 0.4779712002165985 -0.30031816224559243 -0.04405759956680297 -0.6006363244911849
31.0 0.2344871887141168 -0.1522437340812066 0.46897437742823356 -0.3044874681624131 0.46897437742823345 -0.3044874681624129 -0.06205124514353299 -0.6089749363248258
32.0 0.23001566472477925 -0.1541579781354537 0.4600313294495585 -0.30831595627090747 0.4600313294495585 -0.30831595627090747 -0.07993734110088312 -0.6166319125418149
33.0 0.2255774838212594 -0.15590796451739067 0.4511549676425188 -0.31181592903478117 0.4511549676425187 -0.3118159290347811 -0.09769006471496244 -0.6236318580695622
34.0 0.22117850420644788 -0.15749995982797665 0.4423570084128958 -0.31499991965595336 0.44235700841289594 -0.3149999196559534 -0.11528598317420828 -0.6299998393119068
35.0 0.21682400858013934 -0.15894029957802636 0.4336480171602787 -0.3178805991560528 0.4336480171602786 -0.3178805991560529 -0.13270396567944281 -0.6357611983121056
36.0 0.2125187285087756 -0.16023534629601924 0.4250374570175512 -0.3204706925920384 0.4250374570175512 -0.32047069259203836 -0.14992508596489754 -0.6409413851840767
37.0 0.20826687060161356 -0.16139145209814745 0.41653374120322706 -0.32278290419629496 0.416533741203227 -0.3227829041962948 -0.1669325175935459 -0.6455658083925895
38.0 0.20407214396376408 -0.16241492556398285 0.40814428792752816 -0.32482985112796575 0.40814428792752816 -0.3248298511279658 -0.18371142414494365 -0.6496597022559316
39.0 0.19993778845576562 -0.16331200272078208 0.39987557691153125 -0.32662400544156417 0.3998755769115312 -0.3266240054415641 -0.20024884617693772 -0.6532480108831283
40.0 0.1958666033475364 -0.16408882190938837 0.3917332066950728 -0.3281776438187768 0.39173320669507283 -0.3281776438187768 -0.2165335866098544 -0.6563552876375536
41.0 0.19186097601058258 -0.1647514022837465 0.38372195202116516 -0.32950280456749287 0.38372195202116516 -0.3295028045674928 -0.2325560959576696 -0.6590056091349856
42.0 0.18792291034535016 -0.16530562568300633 0.3758458206907003 -0.33061125136601266 0.37584582069070027 -0.33061125136601266 -0.24830835861859937 -0.6612225027320253
43.0 0.18405405469001695 -0.16575722160890377 0.36810810938003385 -0.33151444321780754 0.36810810938003385 -0.33151444321780754 -0.26378378123993224 -0.6630288864356151
44.0 0.1802557290024202 -0.16611175504043288 0.3605114580048404 -0.3322235100808658 0.36051145800484036 -0.3322235100808658 -0.2789770839903193 -0.6644470201617316
45.0 0.1765289511480182 -0.16637461682175764 0.3530579022960364 -0.3327492336435153 0.3530579022960363 -0.3327492336435153 -0.2938841954079275 -0.6654984672870304
46.0 0.17287446216371707 -0.16655101636689157 0.34574892432743415 -0.33310203273378314 0.3457489243274342 -0.33310203273378314 -0.30850215134513165 -0.6662040654675663
47.0 0.16929275040012234 -0.16664597643508433 0.3385855008002447 -0.3332919528701686 0.3385855008002447 -0.33329195287016844 -0.32282899839951057 -0.666583905740337
48.0 0.16578407447344287 -0.1666643297433444 0.33156814894688574 -0.3333286594866888 0.33156814894688574 -0.3333286594866888 -0.3368637021062285 -0.6666573189733777
49.0 0.16234848498309581 -0.16661071719648002 0.3246969699661917 -0.3332214343929601 0.3246969699661917 -0.3332214343929601 -0.35060606006761674 -0.6664428687859203
50.0 0.15898584497228824 -0.16648958752990214 0.3179716899445765 -0.33297917505980434 0.3179716899445764 -0.3329791750598043 -0.3640566201108473 -0.6659583501196086
51.0 0.15569584912677678 -0.16630519817577633 0.31139169825355356 -0.33261039635155265 0.3113916982535535 -0.33261039635155254 -0.377216603492893 -0.6652207927031051
52.0 0.15247804172192422 -0.16606161717854975 0.3049560834438484 -0.3321232343570995 0.3049560834438484 -0.3321232343570995 -0.3900878331123032 -0.6642464687141989
53.0 0.1493318333403868 -0.16576272600113656 0.29866366668077354 -0.3315254520022731 0.2986636666807735 -0.3315254520022731 -0.40267266663845297 -0.6630509040045461
54.0 0.14625651639257875 -0.16541222307788175 0.2925130327851575 -0.3308244461557635 0.2925130327851575 -0.3308244461557636 -0.41497393442968517 -0.6616488923115272
55.0 0.1432512794797535 -0.16501362798467503 0.286502558959507 -0.33002725596935006 0.28650255895950705 -0.33002725596935006 -0.42699488208098607 -0.6600545119387001
56.0 0.14031522064538807 -0.16457028611011598 0.28063044129077613 -0.3291405722202319 0.2806304412907761 -0.32914057222023185 -0.4387391174184478 -0.6582811444404637
57.0 0.1374473595648106 -0.16408537372436702 0.2748947191296212 -0.32817074744873403 0.2748947191296212 -0.3281707474487341 -0.4502105617407576 -0.6563414948974682
58.0 0.13464664872590087 -0.1635619033542066 0.26929329745180175 -0.3271238067084132 0.26929329745180175 -0.3271238067084132 -0.46141340509639656 -0.6542476134168264
59.0 0.13191198365543028 -0.1630027293837936 0.26382396731086055 -0.32600545876758724 0.2638239673108606 -0.32600545876758724 -0.4723520653782789 -0.6520109175351745
60.0 0.12924221224638383 -0.16241055381077293 0.25848442449276765 -0.3248211076215458 0.2584844244927676 -0.32482110762154565 -0.4830311510144646 -0.6496422152430913
61.0 0.12663614324158332 -0.16178793209659248 0.25327228648316663 -0.323575864193185 0.2532722864831667 -0.3235758641931851 -0.49345542703366685 -0.6471517283863703
62.0 0.12409255392826544 -0.16113727905831005 0.2481851078565309 -0.3222745581166201 0.24818510785653086 -0.32227455811662004 -0.5036297842869383 -0.6445491162332401
63.0 0.12161019709708072 -0.1604608747567542 0.24322039419416144 -0.3209217495135084 0.24322039419416144 -0.3209217495135084 -0.5135592116116771 -0.6418434990270168
64.0 0.11918780731739234 -0.15976087034273942 0.23837561463478468 -0.31952174068547884 0.2383756146347847 -0.31952174068547895 -0.5232487707304307 -0.6390434813709579
65.0 0.11682410657885288 -0.15903929382913665 0.23364821315770576 -0.31807858765827324 0.23364821315770576 -0.3180785876582732 -0.5327035736845884 -0.6361571753165464
66.0 0.11451780934711675 -0.1582980557620434 0.2290356186942335 -0.3165961115240868 0.22903561869423353 -0.31659611152408684 -0.5419287626115329 -0.6331922230481737
67.0 0.11226762707926341 -0.15753895476911708 0.22453525415852682 -0.3150779095382341 0.22453525415852685 -0.31507790953823406 -0.5509294916829461 -0.6301558190764682
68.0 0.11007227224213051 -0.15676368296738186 0.22014454448426102 -0.3135273659347637 0.22014454448426102 -0.3135273659347637 -0.5597109110314781 -0.6270547318695274
69.0 0.10793046187432905 -0.1559738312165549 0.2158609237486581 -0.3119476624331098 0.21586092374865806 -0.3119476624331098 -0.5682781525026839 -0.6238953248662195
70.0 0.10584092073027414 -0.15517089420719082 0.2116818414605483 -0.3103417884143817 0.2116818414605483 -0.31034178841438165 -0.5766363170789034 -0.6206835768287633
71.0 0.1038023840421492 -0.1543562753757766 0.2076047680842984 -0.3087125507515531 0.2076047680842984 -0.3087125507515532 -0.5847904638314032 -0.6174251015031063
72.0 0.10181359993335287 -0.15353129164135276 0.20362719986670574 -0.30706258328270564 0.20362719986670574 -0.3070625832827056 -0.5927456002665886 -0.6141251665654112
73.0 0.09987333151467433 -0.15269717796033888 0.19974666302934863 -0.30539435592067776 0.19974666302934863 -0.30539435592067776 -0.6005066739413026 -0.6107887118413554
74.0 0.09798035869222184 -0.1518550916980313 0.19596071738444368 -0.3037101833960626 0.19596071738444368 -0.30371018339606265 -0.6080785652311128 -0.6074203667921253
75.0 0.09613347971400028 -0.1510061168167634 0.19226695942800057 -0.3020122336335268 0.19226695942800054 -0.30201223363352675 -0.6154660811439987 -0.6040244672670535
76.0 0.09433151248000353 -0.1501512678819911 0.18866302496000706 -0.3003025357639822 0.1886630249600071 -0.3003025357639822 -0.6226739500799859 -0.6006050715279644
77.0 0.09257329563876275 -0.14929149388863103 0.18514659127752547 -0.298582987777262 0.18514659127752547 -0.29858298777726194 -0.6297068174449489 -0.5971659755545239
78.0 0.09085768949147548 -0.14842768191085218 0.18171537898295095 -0.2968553638217044 0.18171537898295095 -0.2968553638217044 -0.6365692420340981 -0.5937107276434088
79.0 0.08918357672312664 -0.14756066057923112 0.17836715344625328 -0.2951213211584623 0.17836715344625328 -0.2951213211584623 -0.6432656931074934 -0.5902426423169246
80.0 0.08754986297841309 -0.146691203389747 0.17509972595682619 -0.293382406779494 0.1750997259568262 -0.29338240677949406 -0.6498005480863477 -0.586764813558988
81.0 0.08595547729878134 -0.14582003184953404 0.17191095459756267 -0.29164006369906814 0.17191095459756267 -0.2916400636990682 -0.6561780908048748 -0.5832801273981363
82.0 0.08439937243549286 -0.14494781846464352 0.16879874487098573 -0.28989563692928705 0.16879874487098576 -0.2898956369292871 -0.6624025102580285 -0.5797912738585741
83.0 0.08288052505233223 -0.14407518957530638 0.16576105010466446 -0.28815037915061276 0.16576105010466446 -0.28815037915061276 -0.668477899790671 -0.5763007583012255
84.0 0.08139793583036777 -0.14320272804435183 0.16279587166073556 -0.2864054560887036 0.16279587166073556 -0.28640545608870366 -0.6744082566785289 -0.5728109121774073
85.0 0.07995062948606042 -0.14233097580452925 0.15990125897212085 -0.28466195160905855 0.15990125897212082 -0.2846619516090585 -0.6801974820557583 -0.5693239032181169
86.0 0.0785376547129857 -0.1414604362705196 0.1570753094259714 -0.2829208725410392 0.1570753094259714 -0.28292087254103915 -0.6858493811480573 -0.5658417450820783
87.0 0.07715808405648421 -0.14059157662141045 0.15431616811296842 -0.28118315324282084 0.15431616811296842 -0.28118315324282084 -0.6913676637740631 -0.5623663064856417
88.0 0.07581101372968159 -0.13972482995935936 0.15162202745936315 -0.27944965991871873 0.15162202745936318 -0.2794496599187188 -0.6967559450812737 -0.5588993198374376
89.0 0.07449556337851523 -0.138860597350086 0.14899112675703044 -0.2777211947001719 0.1489911267570304 -0.27772119470017187 -0.702017746485939 -0.5554423894003436
90.0 0.07321087580266857 -0.137999249750723 0.14642175160533713 -0.275998499501446 0.14642175160533716 -0.27599849950144606 -0.7071564967893257 -0.5519969990028921
91.0 0.07195611663863623 -0.13714112983042587 0.14391223327727246 -0.2742822596608517 0.14391223327727246 -0.27428225966085173 -0.712175533445455 -0.5485645193217035
92.0 0.07073047401052729 -0.13628655368898976 0.1414609480210546 -0.27257310737797946 0.1414609480210546 -0.2725731073779795 -0.7170781039578908 -0.5451462147559591
93.0 0.06953315815364694 -0.13543581247856454 0.13906631630729388 -0.2708716249571291 0.13906631630729388 -0.2708716249571291 -0.7218673673854122 -0.5417432499142583
94.0 0.06836340101538166 -0.1345891739333839 0.13672680203076332 -0.2691783478667678 0.13672680203076332 -0.26917834786676786 -0.7265463959384735 -0.5383566957335357
95.0 0.0672204558374428 -0.1337468838122494 0.1344409116748856 -0.2674937676244987 0.13444091167488562 -0.2674937676244988 -0.7311181766502287 -0.5349875352489976
96.0 0.06610359672309461 -0.13290916725832727 0.13220719344618923 -0.26581833451665454 0.13220719344618923 -0.26581833451665454 -0.7355856131076215 -0.531636669033309
97.0 0.0650121181926034 -0.1320762300806322 0.1300242363852068 -0.2641524601612645 0.13002423638520683 -0.2641524601612645 -0.7399515272295866 -0.528304920322529
98.0 0.06394533472979037 -0.13124825996138717 0.12789066945958075 -0.2624965199227743 0.12789066945958075 -0.26249651992277423 -0.7442186610808385 -0.5249930398455485
99.0 0.06290258032224919 -0.13042542759326514 0.12580516064449837 -0.2608508551865303 0.12580516064449837 -0.2608508551865303 -0.7483896787110033 -0.5217017103730606
100.0 0.06188320799749759 -0.12960788775033838 0.12376641599499516 -0.25921577550067676 0.12376641599499516 -0.2592157755006767 -0.7524671680100095 -0.5184315510013534
