! S2P File: Measurements: S-parameters
# Hz S RI R 50
100000000.0 -1.035425464062755 0.011678547970122535 -0.003931324504063056 -0.004771584636130353 -0.003931324504063056 -0.004771584636130353 -1.035426236189878 0.01168663507086575
110000000.0 -1.017777072150955 0.005554680650288034 -0.0017814226436565063 -0.002323736495381076 -0.001781422643656506 -0.002323736495381076 -1.0177758019555532 0.0055580820499979006
120000000.0 -1.0119385932156075 0.0035726264261489848 -0.0010983522013354903 -0.0015218075350957676 -0.0010983522013354903 -0.0015218075350957676 -1.0119377233602245 0.0035749097506872635
130000000.0 -1.0090173942315197 0.0025984535538484056 -0.0007692673960366716 -0.0011229816714006492 -0.0007692673960366717 -0.0011229816714006487 -1.0090164603883909 0.0026004519838343336
140000000.0 -1.0072587353976454 0.002019700974324769 -0.0005784574514210184 -0.0008831150403617074 -0.0005784574514210183 -0.0008831150403617074 -1.0072577898939303 0.0020214393218950773
150000000.0 -1.0060832699493862 0.0016362088829741516 -0.0004542638044179821 -0.0007226794373820643 -0.00045426380441798215 -0.0007226794373820645 -1.0060825579268795 0.0016374681741060445
160000000.0 -1.0052416048346102 0.0013644963268245054 -0.0003676307231890749 -0.000608141121304954 -0.0003676307231890749 -0.000608141121304954 -1.0052411453213175 0.001365443570627117
170000000.0 -1.0046084348079478 0.0011631014000941346 -0.00030445777878914694 -0.0005225910315282305 -0.00030445777878914694 -0.0005225910315282305 -1.0046081376989853 0.0011638403080008028
180000000.0 -1.004114739689641 0.001007960298236264 -0.0002564747266204881 -0.0004562790323362649 -0.0002564747266204881 -0.0004562790323362649 -1.0041145386637391 0.0010085769086202883
190000000.0 -1.0037184705275795 0.0008857911667776095 -0.00021927330711271387 -0.000403708062408889 -0.0002192733071127139 -0.00040370806240888895 -1.0037183288738112 0.0008863591337225905
200000000.0 -1.0033927250333967 0.0007867770661395163 -0.00018989016324088033 -0.00036075799850685984 -0.0001898901632408803 -0.0003607579985068598 -1.0033926034121208 0.0007873789181032285
210000000.0 -1.003120532452136 0.0007052527171533557 -0.00016603769542997786 -0.0003251767694160481 -0.00016603769542997786 -0.0003251767694160481 -1.0031204093809358 0.0007058098832814279
220000000.0 -1.0028893356535657 0.0006370131527301689 -0.0001464765401440914 -0.00029518799989830427 -0.0001464765401440914 -0.0002951879998983043 -1.0028892464243833 0.0006375080474662565
230000000.0 -1.0026906371078952 0.0005791195163519466 -0.00013013673391864796 -0.000269611608614083 -0.00013013673391864793 -0.00026961160861408296 -1.0026905623436964 0.0005795540480013528
240000000.0 -1.0025178812551923 0.0005295022699722578 -0.00011638150586330858 -0.0002475776593520194 -0.00011638150586330858 -0.00024757765935201934 -1.0025178416918796 0.0005298941246541123
250000000.0 -1.0023662808140936 0.0004865716255407985 -0.00010468415805390403 -0.0002284227146410324 -0.00010468415805390405 -0.00022842271464103243 -1.0023662573059964 0.00048693984953161545
260000000.0 -1.002232185978921 0.0004491771092766293 -9.463667568680316e-05 -0.00021167225075217064 -9.463667568680319e-05 -0.00021167225075217067 -1.0022321778883438 0.00044953144551198383
270000000.0 -1.0021126695659905 0.0004163073442187084 -8.59468304992664e-05 -0.00019688165258915306 -8.59468304992664e-05 -0.00019688165258915306 -1.0021126709207089 0.00041664703047284844
280000000.0 -1.00200544228592 0.0003872221666258376 -7.838787667999022e-05 -0.0001837368741076364 -7.838787667999022e-05 -0.00018373687410763642 -1.0020054504440639 0.00038753789189203177
290000000.0 -1.0019086683774772 0.00036132596814349535 -7.178258548652019e-05 -0.0001719815469553841 -7.178258548652019e-05 -0.00017198154695538412 -1.0019086728638589 0.0003616136765385966
300000000.0 -1.001820892576076 0.00033814696063048407 -6.596755396194598e-05 -0.00016142301995933096 -6.596755396194599e-05 -0.000161423019959331 -1.0018209006814325 0.0003384178253048257
310000000.0 -1.00174092014273 0.000317317317802951 -6.0817157250456645e-05 -0.00015190243591997182 -6.081715725045664e-05 -0.0001519024359199718 -1.0017409294739938 0.00031757127217454896
320000000.0 -1.0016677534550558 0.0002984939601046087 -5.622638049487678e-05 -0.00014327258288821592 -5.622638049487679e-05 -0.0001432725828882159 -1.0016677671464267 0.0002987341119914511
330000000.0 -1.0016005613773151 0.00028141853388001785 -5.211600883186965e-05 -0.0001354216730591795 -5.211600883186964e-05 -0.00013542167305917948 -1.0016005758166435 0.00028164532321108254
340000000.0 -1.0015386263888864 0.00026588326577487044 -4.842765665501878e-05 -0.00012826161385583353 -4.8427656655018774e-05 -0.00012826161385583355 -1.0015386419832581 0.00026610517040565377
350000000.0 -1.0014813489070622 0.0002516960503817969 -4.5104812782208955e-05 -0.00012170504674881863 -4.510481278220895e-05 -0.00012170504674881862 -1.001481363191854 0.0002519115852630689
360000000.0 -1.0014282058956996 0.00023869509563436957 -4.210761118619725e-05 -0.00011567872390770041 -4.210761118619725e-05 -0.0001156787239077004 -1.001428221327236 0.00023889932654699432
370000000.0 -1.0013787680917139 0.00022674343123376537 -3.9391962629180045e-05 -0.00011012355498016746 -3.9391962629180045e-05 -0.00011012355498016744 -1.0013787833260854 0.00022693587088281199
380000000.0 -1.0013326687281692 0.00021571725477720002 -3.6917428576037193e-05 -0.0001049875058453498 -3.69174285760372e-05 -0.00010498750584534982 -1.0013326862978733 0.00021589936608108962
390000000.0 -1.0012895669908273 0.00020553108633100951 -3.466410380005877e-05 -0.00010023183261983741 -3.466410380005877e-05 -0.00010023183261983741 -1.0012895864832276 0.0002057042013250791
400000000.0 -1.0012491897977687 0.00019609863182849414 -3.260133203390648e-05 -9.581971823030649e-05 -3.2601332033906475e-05 -9.581971823030647e-05 -1.0012492105500452 0.00019626545648051066
410000000.0 -1.001211281896918 0.00018734291943899603 -3.070985525150325e-05 -9.17165226187034e-05 -3.070985525150325e-05 -9.171652261870341e-05 -1.0012113035547883 0.0001875039896316609
420000000.0 -1.0011756186968195 0.00017919804173385838 -2.8972793065901636e-05 -8.789216017706385e-05 -2.8972793065901636e-05 -8.789216017706385e-05 -1.0011756413745814 0.0001793539213341483
430000000.0 -1.001142008513479 0.0001716086721095544 -2.7373125460257187e-05 -8.432228940183986e-05 -2.7373125460257187e-05 -8.432228940183986e-05 -1.0011420307008285 0.0001717598995735263
440000000.0 -1.0011102754396792 0.00016451913660147423 -2.589722562337642e-05 -8.098075932224598e-05 -2.589722562337642e-05 -8.098075932224598e-05 -1.0011102982292008 0.00016466361627892265
450000000.0 -1.0010802638329739 0.00015788498654906725 -2.4534370610073388e-05 -7.784855039938762e-05 -2.453437061007338e-05 -7.784855039938761e-05 -1.0010802863249015 0.0001580235499276742
460000000.0 -1.0010518418115164 0.00015166413445817897 -2.3270486574473935e-05 -7.490679917425353e-05 -2.327048657447394e-05 -7.490679917425354e-05 -1.0010518647615185 0.00015179757717364754
470000000.0 -1.0010248818103635 0.00014582658546488273 -2.209856804442954e-05 -7.214220609921757e-05 -2.209856804442954e-05 -7.214220609921758e-05 -1.0010249062762038 0.00014595580218408144
480000000.0 -1.0009992780581245 0.00014033942997626047 -2.1007937412314463e-05 -6.954015974103862e-05 -2.1007937412314467e-05 -6.954015974103864e-05 -1.0009993035231588 0.00014046531082126786
490000000.0 -1.0009749273060824 0.0001351748106945973 -1.999297808232166e-05 -6.708749420930541e-05 -1.999297808232166e-05 -6.70874942093054e-05 -1.0009749530757452 0.00013529739105890126
500000000.0 -1.000951738825514 0.00013030727109295486 -1.9047505627910054e-05 -6.47730126437043e-05 -1.9047505627910058e-05 -6.47730126437043e-05 -1.0009517636543908 0.000130427352240544
510000000.0 -1.000929631021183 0.00012571011854054895 -1.8164584214635857e-05 -6.258414270001166e-05 -1.8164584214635857e-05 -6.258414270001166e-05 -1.000929655651866 0.00012582763105434668
520000000.0 -1.0009085294124793 0.00012136662047811922 -1.733957619469922e-05 -6.0513127149349034e-05 -1.7339576194699214e-05 -6.051312714934903e-05 -1.00090855388072 0.00012148075916917096
530000000.0 -1.0008883658551098 0.0001172564659418096 -1.6567661889059064e-05 -5.855054785628055e-05 -1.656766188905906e-05 -5.855054785628054e-05 -1.0008883910996638 0.0001173664222157196
540000000.0 -1.0008690813142092 0.00011336200709342852 -1.5843568946235038e-05 -5.668923539330184e-05 -1.5843568946235038e-05 -5.6689235393301834e-05 -1.0008691070331566 0.00011346921135652986
550000000.0 -1.0008506197795628 0.00010966764282649174 -1.5163156809445546e-05 -5.492151304290139e-05 -1.516315680944555e-05 -5.4921513042901394e-05 -1.0008506462607294 0.00010977174289481097
560000000.0 -1.0008329306287411 0.00010616039166289206 -1.4522664147188374e-05 -5.324190149780833e-05 -1.4522664147188374e-05 -5.324190149780832e-05 -1.0008329569452405 0.000106262661766366
570000000.0 -1.0008159626388538 0.00010282850811001111 -1.3920967477026e-05 -5.1644625394267286e-05 -1.3920967477025999e-05 -5.164462539426727e-05 -1.0008159885946426 0.00010292898353922198
580000000.0 -1.0007996743326726 9.966030194510624e-05 -1.3353838816339033e-05 -5.0124353292479e-05 -1.3353838816339036e-05 -5.0124353292478995e-05 -1.0007996999349975 9.975881359855004e-05
590000000.0 -1.000784023710163 9.664308795429606e-05 -1.281975806013588e-05 -4.8674966585037347e-05 -1.281975806013588e-05 -4.8674966585037347e-05 -1.0007840490503255 9.673927124583554e-05
600000000.0 -1.0007689756855307 9.376659816376137e-05 -1.2315408868924034e-05 -4.7291918925009536e-05 -1.2315408868924034e-05 -4.729191892500954e-05 -1.0007690007366075 9.386046501219212e-05
610000000.0 -1.000754494667093 9.102218045021751e-05 -1.1839078122315721e-05 -4.597112581066343e-05 -1.183907812231572e-05 -4.597112581066343e-05 -1.0007545199814063 9.111369107154785e-05
620000000.0 -1.0007405500463997 8.840139543274674e-05 -1.138838451282181e-05 -4.4708686181337566e-05 -1.138838451282181e-05 -4.4708686181337566e-05 -1.00074057596216 8.849101351323585e-05
630000000.0 -1.0007271127015598 8.58975448351381e-05 -1.0961619144607466e-05 -4.350170586057945e-05 -1.0961619144607466e-05 -4.3501705860579455e-05 -1.0007271389867145 8.598536916323473e-05
640000000.0 -1.0007141559909254 8.350409614798617e-05 -1.0556901773325495e-05 -4.234721829718879e-05 -1.0556901773325497e-05 -4.234721829718879e-05 -1.0007141821509453 8.3590732572916e-05
650000000.0 -1.0007016535224371 8.121506598141171e-05 -1.0173396211561512e-05 -4.1242266718516186e-05 -1.0173396211561509e-05 -4.124226671851618e-05 -1.0007016790770638 8.130030215270148e-05
660000000.0 -1.0006895816722163 7.902287290085411e-05 -9.809631562709825e-06 -4.018304928742774e-05 -9.809631562709823e-06 -4.018304928742774e-05 -1.0006896066872106 7.91063010833147e-05
670000000.0 -1.0006779189722685 7.692189764837672e-05 -9.463923010493109e-06 -3.916715408410835e-05 -9.463923010493109e-06 -3.9167154084108346e-05 -1.0006779434851591 7.700348799805515e-05
680000000.0 -1.0006666446285348 7.490702005110949e-05 -9.135265647774709e-06 -3.8192272220353155e-05 -9.135265647774707e-06 -3.819227222035315e-05 -1.00066666905517 7.498705684137313e-05
690000000.0 -1.0006557399076026 7.297459561710488e-05 -8.822423053049821e-06 -3.725658892558921e-05 -8.82242305304982e-06 -3.725658892558921e-05 -1.0006557644240932 7.305293293015674e-05
700000000.0 -1.0006451863825 7.111812508740772e-05 -8.524682872428442e-06 -3.6357138322355e-05 -8.524682872428442e-06 -3.6357138322355e-05 -1.000645210929072 7.119517799550497e-05
710000000.0 -1.0006349678459585 6.933483891112724e-05 -8.240953812784079e-06 -3.549274822929398e-05 -8.240953812784079e-06 -3.549274822929399e-05 -1.0006349920624318 6.941087797180543e-05
720000000.0 -1.000625068900198 6.76214971921318e-05 -7.970217037459219e-06 -3.466180744295008e-05 -7.970217037459217e-06 -3.466180744295008e-05 -1.0006250925782991 6.769658318110784e-05
730000000.0 -1.0006154730044132 6.597344710609203e-05 -7.712409721986036e-06 -3.38619844455656e-05 -7.712409721986036e-06 -3.38619844455656e-05 -1.0006154963272007 6.604736973867188e-05
740000000.0 -1.0006061675345566 6.438699380972922e-05 -7.466360184121112e-06 -3.30915922595742e-05 -7.466360184121112e-06 -3.30915922595742e-05 -1.000606190486214 6.445979783020315e-05
750000000.0 -1.0005971395603885 6.285980132176136e-05 -7.231246987556526e-06 -3.23495300195146e-05 -7.231246987556526e-06 -3.234953001951459e-05 -1.0005971622079863 6.293123720968932e-05
760000000.0 -1.0005883765044101 6.138832132264872e-05 -7.0065830419824606e-06 -3.1634123255688976e-05 -7.0065830419824606e-06 -3.1634123255688976e-05 -1.0005883990619377 6.145831876061876e-05
770000000.0 -1.000579867071265 5.996960501490191e-05 -6.791665163769356e-06 -3.094404821308253e-05 -6.791665163769358e-06 -3.0944048213082534e-05 -1.0005798896204565 6.003845541094936e-05
780000000.0 -1.0005716004747154 5.8601181140115735e-05 -6.5859163188736645e-06 -3.027810648728029e-05 -6.5859163188736645e-06 -3.027810648728029e-05 -1.000571623081308 5.8668945143340566e-05
790000000.0 -1.0005635666261603 5.728079439054755e-05 -6.3888100323755444e-06 -2.9635330942327165e-05 -6.388810032375545e-06 -2.9635330942327165e-05 -1.000563589168708 5.734768840229062e-05
800000000.0 -1.0005557557830294 5.600634004651343e-05 -6.1999019153045846e-06 -2.9014572472089458e-05 -6.1999019153045846e-06 -2.9014572472089458e-05 -1.000555778193347 5.607214187281884e-05
810000000.0 -1.0005481585184257 5.477577652155551e-05 -6.01900038640206e-06 -2.8415065726877054e-05 -6.019000386402059e-06 -2.8415065726877057e-05 -1.0005481805038798 5.484084685308875e-05
820000000.0 -1.0005407659135122 5.358667833636614e-05 -5.8457040596695815e-06 -2.783540999168016e-05 -5.845704059669582e-06 -2.783540999168016e-05 -1.0005407874887016 5.365070797122563e-05
830000000.0 -1.000533570314607 5.2437505687817514e-05 -5.679252753943281e-06 -2.727493196254195e-05 -5.6792527539432805e-06 -2.7274931962541956e-05 -1.0005335915427331 5.2500393570023084e-05
840000000.0 -1.0005265636050045 5.1326168191005275e-05 -5.519438348022021e-06 -2.673276026543009e-05 -5.519438348022021e-06 -2.6732760265430086e-05 -1.000526584774525 5.138796592050567e-05
850000000.0 -1.000519738634421 5.025082963495959e-05 -5.365895265263693e-06 -2.620796876193048e-05 -5.365895265263692e-06 -2.6207968761930476e-05 -1.000519759834146 5.0311760461476444e-05
860000000.0 -1.0005130885286142 4.921012921344595e-05 -5.218388921218331e-06 -2.5699957057312425e-05 -5.218388921218331e-06 -2.5699957057312425e-05 -1.0005131094157729 4.927034274726394e-05
870000000.0 -1.0005066064087245 4.820261549547589e-05 -5.076577391755343e-06 -2.52080060855766e-05 -5.076577391755344e-06 -2.520800608557661e-05 -1.0005066271429373 4.826205651574346e-05
880000000.0 -1.000500286094105 4.7226679086826687e-05 -4.940178320320102e-06 -2.473126966570051e-05 -4.940178320320102e-06 -2.473126966570051e-05 -1.0005003066106208 4.728537590066293e-05
890000000.0 -1.0004941215650929 4.628122373725821e-05 -4.808927792053414e-06 -2.4269246746103903e-05 -4.808927792053412e-06 -2.4269246746103903e-05 -1.000494141759596 4.6338990473986583e-05
900000000.0 -1.00048810686387 4.536481374518097e-05 -4.68273087130987e-06 -2.3821293947452372e-05 -4.68273087130987e-06 -2.3821293947452365e-05 -1.0004881267821164 4.5421634601872764e-05
910000000.0 -1.000482236911995 4.4476229092657583e-05 -4.561162142486751e-06 -2.3386815440471805e-05 -4.5611621424867514e-06 -2.3386815440471812e-05 -1.0004822565965883 4.453219361234081e-05
920000000.0 -1.0004765065183518 4.361419966902852e-05 -4.443993103527177e-06 -2.296521449925605e-05 -4.4439931035271774e-06 -2.2965214499256052e-05 -1.0004765260975395 4.366934532520412e-05
930000000.0 -1.000470910667548 4.277780080258114e-05 -4.331018902754464e-06 -2.2556076206518532e-05 -4.331018902754464e-06 -2.255607620651853e-05 -1.000470930220126 4.283226544946667e-05
940000000.0 -1.0004654448099455 4.1965967053298966e-05 -4.222027855607137e-06 -2.2158882695849905e-05 -4.222027855607137e-06 -2.215888269584991e-05 -1.000465464303781 4.201982511345447e-05
950000000.0 -1.0004601042779995 4.117780754314161e-05 -4.117026482313546e-06 -2.1773207780615924e-05 -4.117026482313546e-06 -2.1773207780615924e-05 -1.0004601235293256 4.1231048610353554e-05
960000000.0 -1.000454885004775 4.0412379561826026e-05 -4.015692782725885e-06 -2.139854136642908e-05 -4.015692782725886e-06 -2.1398541366429083e-05 -1.0004549039219874 4.046495079475386e-05
970000000.0 -1.0004497826027685 3.966866350996223e-05 -3.917950725210896e-06 -2.10344132775228e-05 -3.917950725210896e-06 -2.1034413277522802e-05 -1.0004498012944423 3.9720566970717167e-05
980000000.0 -1.0004447933480995 3.894585024011054e-05 -3.823574155734632e-06 -2.068046968802531e-05 -3.823574155734632e-06 -2.0680469688025308e-05 -1.000444811825422 3.899705386135854e-05
990000000.0 -1.0004399136729742 3.8243087730568205e-05 -3.7323324084467884e-06 -2.0336241591474185e-05 -3.7323324084467888e-06 -2.0336241591474192e-05 -1.0004399319934896 3.8293540688097174e-05
1000000000.0 -1.0004351398985643 3.7559665493176656e-05 -3.6441137307500104e-06 -2.0001478024946623e-05 -3.6441137307500104e-06 -2.0001478024946626e-05 -1.0004351581100253 3.7609493454351855e-05
1010000000.0 -1.00043046857684 3.689484203562405e-05 -3.5588635363117295e-06 -1.967581238836807e-05 -3.5588635363117295e-06 -1.9675812388368074e-05 -1.0004304867230345 3.694412872301607e-05
1020000000.0 -1.0004258964846442 3.6248001370018386e-05 -3.4764497072374414e-06 -1.935891831466658e-05 -3.476449707237441e-06 -1.935891831466658e-05 -1.0004259144370067 3.629676230604151e-05
1030000000.0 -1.0004214204922326 3.5618520638041716e-05 -3.396697373152201e-06 -1.9050501729681502e-05 -3.396697373152201e-06 -1.9050501729681502e-05 -1.0004214382198837 3.566675379688435e-05
1040000000.0 -1.000417037491302 3.500578275902138e-05 -3.319606864647419e-06 -1.8750261091632877e-05 -3.319606864647419e-06 -1.8750261091632877e-05 -1.0004170549432967 3.505343997884722e-05
1050000000.0 -1.000412744758165 3.440902706399096e-05 -3.2449330347146928e-06 -1.845778714125534e-05 -3.2449330347146928e-06 -1.845778714125534e-05 -1.0004127619740995 3.445606975792752e-05
1060000000.0 -1.0004085393240636 3.382778146169904e-05 -3.172722762832855e-06 -1.8172881858975466e-05 -3.172722762832855e-06 -1.8172881858975463e-05 -1.0004085563683018 3.3874175434113716e-05
1070000000.0 -1.0004044187322123 3.326141015046052e-05 -3.1027530981177254e-06 -1.7895238431068858e-05 -3.1027530981177254e-06 -1.7895238431068858e-05 -1.000404435606048 3.33071731113981e-05
1080000000.0 -1.0004003804319146 3.2709376543093514e-05 -3.0349771209767854e-06 -1.762461972940137e-05 -3.034977120976785e-06 -1.7624619729401368e-05 -1.0004003971037372 3.275460079072609e-05
1090000000.0 -1.00039642197813 3.2171296876961485e-05 -2.96925074505596e-06 -1.7360873114891035e-05 -2.96925074505596e-06 -1.7360873114891035e-05 -1.0003964384723258 3.221603130536036e-05
1100000000.0 -1.0003925410713717 3.164674089045524e-05 -2.9055127390556777e-06 -1.71037558469804e-05 -2.9055127390556764e-06 -1.71037558469804e-05 -1.0003925573509413 3.169099197173109e-05
1110000000.0 -1.0003887353438208 3.113518463449309e-05 -2.8437857414556025e-06 -1.685301435515398e-05 -2.843785741455602e-06 -1.685301435515398e-05 -1.000388751342206 3.117895533999009e-05
1120000000.0 -1.0003850025203636 3.063627585508909e-05 -2.784008664977608e-06 -1.660846163157962e-05 -2.784008664977608e-06 -1.6608461631579623e-05 -1.00038501824503 3.067945799048674e-05
1130000000.0 -1.0003813406604716 3.014947922543377e-05 -2.7259885378549676e-06 -1.636984670063213e-05 -2.725988537854968e-06 -1.636984670063213e-05 -1.0003813561856787 3.019208173620549e-05
1140000000.0 -1.000377747707989 2.967437678856157e-05 -2.6697099205515404e-06 -1.6137004589473256e-05 -2.66970992055154e-06 -1.6137004589473253e-05 -1.0003777631286594 2.971646902782066e-05
