! S2P File: Measurements: S11, S21, S12, S22
# Hz S RI R 50
1.0 0.7577151250091734 -0.5141444732158933 0.12114243749541337 0.25707223660794665 0.12114243749541335 0.2570722366079467 -0.06057121874770668 -0.12853611830397332
2.0 0.37278247125873926 -0.6654984672870304 0.31360876437063034 0.3327492336435152 0.31360876437063034 0.33274923364351516 -0.15680438218531517 -0.1663746168217576
3.0 0.11131937291822444 -0.6286129539114214 0.44434031354088777 0.3143064769557107 0.4443403135408876 0.3143064769557107 -0.2221701567704438 -0.15715323847785534
4.0 -0.040489830122658964 -0.5519969990028921 0.5202449150613295 0.27599849950144606 0.5202449150613295 0.27599849950144606 -0.26012245753066476 -0.137999249750723
5.0 -0.12982233541389174 -0.47951149199133397 0.5649111677069459 0.23975574599566699 0.5649111677069459 0.239755745995667 -0.28245558385347297 -0.1198778729978335
6.0 -0.18509260992210494 -0.41914077086839635 0.5925463049610524 0.20957038543419815 0.5925463049610524 0.2095703854341982 -0.2962731524805262 -0.10478519271709909
7.0 -0.2211115903047156 -0.3701827536453349 0.6105557951523577 0.1850913768226673 0.6105557951523579 0.18509137682266738 -0.3052778975761788 -0.09254568841133375
8.0 -0.24568455969883968 -0.3304280920155358 0.6228422798494199 0.16521404600776796 0.6228422798494198 0.16521404600776793 -0.31142113992471 -0.08260702300388398
9.0 -0.26311115641180455 -0.29782279143327234 0.6315555782059022 0.14891139571663617 0.6315555782059022 0.14891139571663617 -0.31577778910295107 -0.07445569785831808
10.0 -0.2758784384159801 -0.27074981367769546 0.63793921920799 0.13537490683884773 0.6379392192079901 0.13537490683884776 -0.31896960960399506 -0.06768745341942388
11.0 -0.2854921625447272 -0.24799082663622254 0.6427460812723637 0.12399541331811127 0.6427460812723637 0.12399541331811127 -0.32137304063618183 -0.061997706659055636
12.0 -0.2929017483110723 -0.22863522686206747 0.6464508741555361 0.11431761343103373 0.6464508741555361 0.11431761343103372 -0.3232254370777681 -0.05715880671551686
13.0 -0.2987275188843551 -0.21199887626658248 0.6493637594421775 0.10599943813329123 0.6493637594421776 0.10599943813329124 -0.32468187972108875 -0.052999719066645606
14.0 -0.303387579966679 -0.19756245344407636 0.6516937899833394 0.09878122672203793 0.6516937899833396 0.09878122672203793 -0.3258468949916697 -0.049390613361019194
15.0 -0.3071715227828319 -0.18492694161764267 0.6535857613914159 0.0924634708088211 0.6535857613914161 0.09246347080882109 -0.32679288069570805 -0.04623173540441077
16.0 -0.3102847906429691 -0.17378191774079813 0.6551423953214845 0.08689095887039905 0.6551423953214847 0.08689095887039905 -0.3275711976607423 -0.043445479435199524
17.0 -0.3128762513248522 -0.16388293730690806 0.6564381256624261 0.08194146865345402 0.6564381256624263 0.08194146865345403 -0.3282190628312131 -0.040970734326727015
18.0 -0.31505582811246774 -0.15503528554511484 0.6575279140562338 0.07751764277255742 0.6575279140562338 0.07751764277255743 -0.32876395702811684 -0.038758821386278716
19.0 -0.31690606570355695 -0.14708218241713783 0.6584530328517785 0.07354109120856892 0.6584530328517785 0.07354109120856892 -0.32922651642588924 -0.03677054560428446
20.0 -0.3184898937054778 -0.139896122666623 0.6592449468527388 0.06994806133331148 0.659244946852739 0.06994806133331151 -0.3296224734263695 -0.03497403066665575
21.0 -0.3198559469107207 -0.13337244325084152 0.6599279734553603 0.06668622162542075 0.6599279734553604 0.06668622162542075 -0.3299639867276801 -0.03334311081271037
22.0 -0.32104228030467924 -0.12742449026901753 0.6605211401523396 0.06371224513450877 0.6605211401523395 0.06371224513450877 -0.3302605700761698 -0.03185612256725439
23.0 -0.3220790077768003 -0.12197994738881542 0.6610395038884 0.06098997369440723 0.6610395038884 0.06098997369440723 -0.33051975194419997 -0.03049498684720407
24.0 -0.3229902057412865 -0.11697801716993854 0.6614951028706433 0.058489008584969276 0.6614951028706432 0.05848900858496927 -0.33074755143532164 -0.02924450429248464
25.0 -0.3237953061462112 -0.11236723552800983 0.6618976530731057 0.05618361776400491 0.6618976530731056 0.056183617764004906 -0.33094882653655283 -0.028091808882002453
26.0 -0.324510129254286 -0.1081037611518486 0.662255064627143 0.054051880575924305 0.6622550646271429 0.0540518805759243 -0.3311275323135715 -0.027025940287962156
27.0 -0.3251476586329182 -0.10415002478917584 0.6625738293164591 0.05207501239458745 0.6625738293164591 0.05207501239458744 -0.3312869146582295 -0.02603750619729419
28.0 -0.32571862921266875 -0.1004736538039088 0.6628593146063344 0.05023682690195393 0.6628593146063345 0.05023682690195394 -0.33142965730316726 -0.02511841345097743
29.0 -0.3262319781313995 -0.09704660919823202 0.6631159890656997 0.048523304599116 0.6631159890656997 0.04852330459911601 -0.3315579945328498 -0.024261652299558
30.0 -0.32669519371064876 -0.09384448802458226 0.6633475968553243 0.046922244012290656 0.6633475968553244 0.04692224401229066 -0.33167379842766215 -0.02346112200614579
31.0 -0.32711458800390475 -0.09084595558287584 0.6635572940019523 0.04542297779143745 0.6635572940019525 0.045422977791437454 -0.33177864700097615 -0.022711488895719185
32.0 -0.32749551143669026 -0.08803228024060539 0.6637477557183451 0.044016140120302694 0.6637477557183451 0.0440161401203027 -0.3318738778591726 -0.02200807006015135
33.0 -0.32784252316548296 -0.08538694998359643 0.6639212615827415 0.042693474991798215 0.6639212615827416 0.042693474991798215 -0.3319606307913708 -0.021346737495899104
34.0 -0.32815952728296205 -0.08289535450261898 0.6640797636414809 0.04144767725130949 0.664079763641481 0.04144767725130949 -0.3320398818207405 -0.020723838625654745
35.0 -0.3284498824670807 -0.08054452016932696 0.6642249412335404 0.04027226008466348 0.6642249412335404 0.04027226008466348 -0.3321124706167702 -0.02013613004233174
36.0 -0.32871649082389 -0.07832288795642188 0.664358245411945 0.03916144397821095 0.664358245411945 0.03916144397821095 -0.33217912270597255 -0.019580721989105473
37.0 -0.32896187031197 -0.07622012642911725 0.6644809351559849 0.03811006321455863 0.6644809351559849 0.03811006321455863 -0.33224046757799247 -0.019055031607279314
38.0 -0.32918821412316385 -0.0742269735358562 0.6645941070615818 0.03711348676792809 0.664594107061582 0.03711348676792809 -0.3322970535307909 -0.018556743383964045
39.0 -0.3293974396343095 -0.07233510217145638 0.6646987198171547 0.03616755108572818 0.6646987198171547 0.03616755108572818 -0.3323493599085773 -0.01808377554286409
40.0 -0.32959122897000787 -0.07053700546073492 0.6647956144850038 0.035268502730367454 0.664795614485004 0.03526850273036747 -0.33239780724250195 -0.01763425136518373
41.0 -0.32977106277866186 -0.06882589847862998 0.6648855313893309 0.03441294923931499 0.664885531389331 0.034412949239315 -0.3324427656946655 -0.0172064746196575
42.0 -0.3299382484880819 -0.06719563373138275 0.6649691242440409 0.03359781686569137 0.664969124244041 0.033597816865691375 -0.33248456212202043 -0.016798908432845688
43.0 -0.3300939440474397 -0.065640628208293 0.6650469720237199 0.0328203141041465 0.6650469720237199 0.0328203141041465 -0.33252348601185994 -0.01641015705207325
44.0 -0.33023917796055147 -0.06415580020209734 0.6651195889802757 0.03207790010104867 0.6651195889802756 0.03207790010104867 -0.3325597944901378 -0.016038950050524334
45.0 -0.33037486625761875 -0.0627365144089242 0.6651874331288093 0.03136825720446209 0.6651874331288092 0.031368257204462104 -0.3325937165644046 -0.01568412860223105
46.0 -0.3305018269283202 -0.06137853407201208 0.6652509134641601 0.03068926703600512 0.6652509134641601 0.03068926703600512 -0.33262545673208005 -0.015344633518003484
47.0 -0.330620792240854 -0.06007797913928675 0.665310396120427 0.030038989569643376 0.6653103961204271 0.030038989569643376 -0.3326551980602135 -0.015019494784821688
48.0 -0.33073241929332503 -0.0588312895731026 0.6653662096466626 0.029415644786551304 0.6653662096466626 0.029415644786551308 -0.33268310482333135 -0.01470782239327565
49.0 -0.33083729908134035 -0.05763519308839794 0.6654186495406702 0.02881759654419897 0.6654186495406702 0.02881759654419897 -0.3327093247703351 -0.014408798272099486
50.0 -0.33093596431543826 -0.056486676709221445 0.6654679821577192 0.028243338354610723 0.6654679821577191 0.028243338354610723 -0.33273399107885954 -0.014121669177305361
51.0 -0.33102889618141307 -0.05538296162756107 0.6655144480907066 0.027691480813780533 0.6655144480907066 0.027691480813780533 -0.3327572240453533 -0.013845740406890267
52.0 -0.3311165302037127 -0.05432148092647514 0.6655582651018563 0.027160740463237566 0.6655582651018563 0.027160740463237566 -0.33277913255092817 -0.013580370231618783
53.0 -0.3311992613453057 -0.05329985979456234 0.6655996306726527 0.026649929897281162 0.6655996306726529 0.026649929897281162 -0.3327998153363264 -0.01332496494864058
54.0 -0.33127744845551216 -0.052315897913200786 0.665638724227756 0.026157948956599467 0.6656387242277562 0.02615794895659947 -0.3328193621138781 -0.01307897447830066
55.0 -0.3313514181593122 -0.05136755374362654 0.665675709079656 0.02568377687181327 0.665675709079656 0.025683776871813266 -0.332837854539828 -0.012841888435906633
56.0 -0.33142146826684227 -0.05045293047936658 0.6657107341334211 0.025226465239682368 0.6657107341334212 0.025226465239682368 -0.3328553670667106 -0.012613232619842108
57.0 -0.3314878707695116 -0.049570263461958024 0.6657439353847558 0.024785131730979012 0.6657439353847558 0.02478513173097901 -0.3328719676923779 -0.012392565865489508
58.0 -0.33155087447903026 -0.04871790888544218 0.6657754372395152 0.024358954442721095 0.665775437239515 0.02435895444272109 -0.3328877186197576 -0.012179477221360547
59.0 -0.331610707357142 -0.047894333638414555 0.665805353678571 0.02394716681920728 0.6658053536785711 0.023947166819207284 -0.33290267683928554 -0.011973583409603642
60.0 -0.33166757857679596 -0.04709810615238106 0.6658337892883979 0.023549053076189607 0.665833789288398 0.0235490530761896 -0.332916894644199 -0.011774526538095726
61.0 -0.3317216803495455 -0.04632788814213665 0.6658608401747727 0.023163944071068324 0.6658608401747729 0.023163944071068327 -0.3329304200873864 -0.011581972035534164
62.0 -0.3317731895489856 -0.045582427138491095 0.6658865947744927 0.02279121356924462 0.6658865947744929 0.022791213569244618 -0.3329432973872464 -0.011395606784623234
63.0 -0.33182226915582336 -0.04486054972614052 0.6659111345779117 0.022430274863070265 0.6659111345779118 0.022430274863070268 -0.332955567288956 -0.011215137431535138
64.0 -0.33186906954662454 -0.04416115541032263 0.6659345347733122 0.022080577705161315 0.6659345347733123 0.02208057770516132 -0.33296726738665616 -0.01104028885258066
65.0 -0.3319137296452634 -0.04348321104512943 0.6659568648226317 0.021741605522564714 0.6659568648226316 0.021741605522564714 -0.3329784324113158 -0.010870802761282355
66.0 -0.3319563779535333 -0.04282574576446094 0.6659781889767666 0.02141287288223047 0.6659781889767666 0.02141287288223047 -0.3329890944883834 -0.010706436441115236
67.0 -0.3319971334751923 -0.04218784636354529 0.665998566737596 0.02109392318177172 0.6659985667375963 0.021093923181771716 -0.3329992833687981 -0.010546961590886783
68.0 -0.33203610654585214 -0.04156865308503038 0.6660180532729262 0.020784326542515195 0.6660180532729261 0.020784326542515188 -0.33300902663646315 -0.010392163271257597
69.0 -0.3320733995795107 -0.04096735576894776 0.6660366997897554 0.020483677884473882 0.6660366997897554 0.02048367788447388 -0.3330183498948778 -0.010241838942236941
70.0 -0.3321091077411603 -0.04038319033042663 0.6660545538705801 0.020191595165213315 0.6660545538705801 0.02019159516521332 -0.33302727693529005 -0.010095797582606657
71.0 -0.33214331955371806 -0.03981543553311247 0.6660716597768589 0.019907717766555304 0.6660716597768591 0.019907717766555304 -0.3330358298884295 -0.009953858883278576
72.0 -0.3321761174465044 -0.03926341002973713 0.6660880587232522 0.01963170501486856 0.6660880587232523 0.019631705014868564 -0.3330440293616261 -0.009815852507434282
73.0 -0.33220757825161495 -0.038726469644425124 0.6661037891258075 0.019363234822212562 0.6661037891258076 0.01936323482221256 -0.3330518945629038 -0.00968161741110628
74.0 -0.33223777365376483 -0.0382040048740069 0.6661188868268824 0.019102002437003447 0.6661188868268825 0.01910200243700345 -0.33305944341344124 -0.009551001218501724
75.0 -0.3322667705985233 -0.03769543858805887 0.6661333852992617 0.018847719294029435 0.6661333852992616 0.01884771929402943 -0.3330666926496308 -0.009423859647014716
76.0 -0.3322946316632775 -0.03720022390947484 0.6661473158316387 0.01860011195473742 0.6661473158316387 0.01860011195473742 -0.33307365791581933 -0.009300055977368708
77.0 -0.3323214153947652 -0.03671784225926706 0.6661607076973827 0.018358921129633533 0.6661607076973824 0.01835892112963353 -0.3330803538486913 -0.009179460564816765
78.0 -0.33234717661657304 -0.036247801550950094 0.6661735883082865 0.01812390077547505 0.6661735883082863 0.018123900775475047 -0.3330867941541432 -0.009061950387737525
79.0 -0.33237196670961644 -0.035789634521334296 0.6661859833548082 0.017894817260667148 0.6661859833548083 0.017894817260667148 -0.33309299167740414 -0.008947408630333576
80.0 -0.33239583386828025 -0.0353428971858641 0.6661979169341401 0.01767144859293205 0.6661979169341404 0.017671448592932057 -0.33309895846707016 -0.008835724296466028
81.0 -0.3324188233346029 -0.034907167407800636 0.6662094116673014 0.017453583703900318 0.6662094116673013 0.017453583703900315 -0.33310470583365065 -0.008726791851950157
82.0 -0.33244097761262964 -0.03448204357158496 0.6662204888063148 0.017241021785792482 0.6662204888063147 0.01724102178579248 -0.3331102444031574 -0.008620510892896241
83.0 -0.3324623366648298 -0.034067143351644145 0.6662311683324149 0.017033571675822073 0.6662311683324149 0.017033571675822073 -0.33311558416620746 -0.008516785837911036
84.0 -0.3324829380922731 -0.033662102568729715 0.6662414690461366 0.016831051284364858 0.6662414690461365 0.016831051284364858 -0.3331207345230683 -0.008415525642182429
85.0 -0.3325028173000809 -0.033266574126617196 0.6662514086500404 0.016633287063308598 0.6662514086500404 0.016633287063308598 -0.3331257043250202 -0.008316643531654299
86.0 -0.3325220076495132 -0.03288022702265991 0.6662610038247565 0.016440113511329953 0.6662610038247566 0.016440113511329953 -0.3331305019123783 -0.008220056755664975
87.0 -0.33254054059790783 -0.03250274542628528 0.6662702702989539 0.016251372713140786 0.6662702702989538 0.01625137271314079 -0.3331351351494769 -0.008125686356572244
88.0 -0.332558445827572 -0.03213382782004723 0.6662792229137859 0.016066913910023614 0.6662792229137859 0.016066913910023618 -0.3331396114568929 -0.008033456955011809
89.0 -0.33257575136460693 -0.031773186198363106 0.6662878756823034 0.01588659309918155 0.6662878756823037 0.015886593099181556 -0.33314393784115176 -0.007943296549590776
90.0 -0.33259248368855854 -0.03142054531942815 0.6662962418442793 0.015710272659714076 0.6662962418442793 0.015710272659714076 -0.33314812092213963 -0.007855136329857038
91.0 -0.33260866783369186 -0.031075642006276587 0.6663043339168458 0.015537821003138294 0.666304333916846 0.015537821003138292 -0.333152166958423 -0.007768910501569146
92.0 -0.3326243274826133 -0.030738224493243343 0.6663121637413066 0.015369112246619823 0.6663121637413064 0.015369112246619819 -0.33315608187065326 -0.007684556123311761
93.0 -0.3326394850528947 -0.030408051814423832 0.6663197425264474 0.015204025907211918 0.6663197425264474 0.015204025907211916 -0.3331598712632237 -0.007602012953605958
94.0 -0.332654161777289 -0.030084893231041403 0.6663270808886446 0.015042446615520701 0.6663270808886445 0.015042446615520701 -0.3331635404443222 -0.007521223307760351
95.0 -0.3326683777780773 -0.029768527694826432 0.6663341888890387 0.01488426384741322 0.6663341888890385 0.014884263847413218 -0.33316709444451936 -0.007442131923706609
96.0 -0.33268215213602703 -0.029458743344832505 0.6663410760680135 0.014729371672416253 0.6663410760680136 0.014729371672416254 -0.3331705380340068 -0.007364685836208126
97.0 -0.3326955029544093 -0.029155337035262383 0.6663477514772046 0.014577668517631192 0.6663477514772046 0.014577668517631192 -0.3331738757386023 -0.007288834258815596
98.0 -0.33270844741847105 -0.028858113892105436 0.6663542237092355 0.014429056946052718 0.6663542237092355 0.01442905694605272 -0.33317711185461774 -0.00721452847302636
99.0 -0.3327210018507295 -0.028566886896557005 0.6663605009253648 0.014283443448276652 0.6663605009253647 0.01428344344827665 -0.33318025046268235 -0.007141721724140174
100.0 -0.33273318176241956 -0.028281476493343796 0.6663665908812098 0.0141407382466719 0.6663665908812096 0.014140738246671896 -0.3331832954406049 -0.007070369123335948
